T8D50 000:012.508   SEGGER J-Link V9.76 Log File
T8D50 000:012.699   DLL Compiled: Sep  9 2026 15:03:21
T8D50 000:012.708   Logging started @ 2026-09-20 13:03
T8D50 000:012.717   Process: D:\MDK\UV4\UV4.exe
T8D50 000:012.739 - 12.726ms 
T8D50 000:012.759 JLINK_SetWarnOutHandler(...)
T8D50 000:012.772 - 0.015ms 
T8D50 000:012.793 JLINK_OpenEx(...)
T8D50 000:019.775   Firmware: J-Link OB-Mini Plus-CortexM compiled Mar  8 2099 11:15:54
T8D50 000:021.257   Firmware: J-Link OB-Mini Plus-CortexM compiled Mar  8 2099 11:15:54
T8D50 000:026.515   Hardware: V1.00
T8D50 000:026.540   S/N: 63728809
T8D50 000:026.555   OEM: SEGGER
T8D50 000:026.571   Feature(s): GDB, RDI, FlashBP, FlashDL, JFlash
T8D50 000:027.882   Bootloader: (FW returned invalid version)
T8D50 000:029.336   TELNET listener socket opened on port 19021
T8D50 000:029.438   WEBSRV WEBSRV_Init(): Starting webserver thread(s)
T8D50 000:029.653   WEBSRV Webserver running on local port 19080
T8D50 000:029.789   Looking for J-Link GUI Server exe at: D:\MDK\ARM\Segger\JLinkGUIServer.exe
T8D50 000:029.915   Looking for J-Link GUI Server exe at: C:\Program Files\SEGGER\JLink_V976\JLinkGUIServer.exe
T8D50 000:029.955   Forking J-Link GUI Server: C:\Program Files\SEGGER\JLink_V976\JLinkGUIServer.exe
T8D50 000:035.493   J-Link GUI Server info: "J-Link GUI server V9.76 "
T8D50 000:035.873 - 23.063ms returns "O.K."
T8D50 000:035.930 JLINK_GetEmuCaps()
T8D50 000:035.953 - 0.018ms returns 0xB8EA5A33
T8D50 000:035.978 JLINK_TIF_GetAvailable(...)
T8D50 000:036.409 - 0.430ms 
T8D50 000:036.444 JLINK_SetErrorOutHandler(...)
T8D50 000:036.455 - 0.011ms 
T8D50 000:036.507 JLINK_ExecCommand("ProjectFile = "C:\Users\Dalix\Desktop\RMµç¿Ø\My_infantry\infantry_up\MDK-ARM\JLinkSettings.ini"", ...). 
T8D50 000:055.697   Ref file found at: D:\MDK\ARM\Segger\JLinkDevices.ref
T8D50 000:055.810   REF file references invalid XML file: C:\Program Files\SEGGER\JLink_V976\JLinkDevices.xml
T8D50 000:055.929 - 19.425ms returns 0x00
T8D50 000:055.979 JLINK_ExecCommand("Device = STM32F407IGHx", ...). 
T8D50 000:057.247   Flash bank @ 0x08000000: SFL: Parsing sectorization info from ELF file
T8D50 000:057.269     FlashDevice.SectorInfo[0]: .SectorSize = 0x00004000, .SectorStartAddr = 0x08000000
T8D50 000:057.283     FlashDevice.SectorInfo[1]: .SectorSize = 0x00010000, .SectorStartAddr = 0x08010000
T8D50 000:057.296     FlashDevice.SectorInfo[2]: .SectorSize = 0x000D0000, .SectorStartAddr = 0x08020000
T8D50 000:057.309   FlashBank @0x08000000: Sectorization info from SFL ELF file ignored because sectorization override from DLL / XML file is active.
T8D50 000:057.609   Flash bank @ 0x08000000: SFL: Parsing sectorization info from ELF file
T8D50 000:057.624     FlashDevice.SectorInfo[0]: .SectorSize = 0x00004000, .SectorStartAddr = 0x08000000
T8D50 000:057.636     FlashDevice.SectorInfo[1]: .SectorSize = 0x00010000, .SectorStartAddr = 0x08010000
T8D50 000:057.649     FlashDevice.SectorInfo[2]: .SectorSize = 0x000D0000, .SectorStartAddr = 0x08020000
T8D50 000:057.662   FlashBank @0x1FFF7800: Sectorization info from SFL ELF file ignored because sectorization override from DLL / XML file is active.
T8D50 000:057.725   Device "STM32F407IG" selected.
T8D50 000:058.028 - 2.049ms returns 0x00
T8D50 000:058.071   ERROR: Unknown command
T8D50 000:058.096 JLINK_GetHardwareVersion()
T8D50 000:058.107 - 0.011ms returns 10000
T8D50 000:058.122 JLINK_GetDLLVersion()
T8D50 000:058.133 - 0.011ms returns 97600
T8D50 000:058.156 JLINK_GetOEMString(...)
T8D50 000:058.170 JLINK_GetFirmwareString(...)
T8D50 000:058.181 - 0.011ms 
T8D50 000:058.216 JLINK_GetDLLVersion()
T8D50 000:058.227 - 0.010ms returns 97600
T8D50 000:058.240 JLINK_GetCompileDateTime()
T8D50 000:058.252 - 0.011ms 
T8D50 000:058.272 JLINK_GetFirmwareString(...)
T8D50 000:058.283 - 0.011ms 
T8D50 000:058.303 JLINK_GetHardwareVersion()
T8D50 000:058.314 - 0.011ms returns 10000
T8D50 000:058.333 JLINK_GetSN()
T8D50 000:058.345 - 0.011ms returns 63728809
T8D50 000:058.365 JLINK_GetOEMString(...)
T8D50 000:058.395 JLINK_TIF_Select(JLINKARM_TIF_SWD)
T8D50 000:059.915 - 1.520ms returns 0x00
T8D50 000:059.939 JLINK_HasError()
T8D50 000:059.974 JLINK_SetSpeed(10000)
T8D50 000:060.318 - 0.346ms 
T8D50 000:060.342 JLINK_GetId()
T8D50 000:060.779   InitTarget() start
T8D50 000:060.806    J-Link Script File: Executing InitTarget()
T8D50 000:061.456   SWD selected. Executing JTAG -> SWD switching sequence.
T8D50 000:068.197   DAP initialized successfully.
T8D50 000:092.198   InitTarget() end - Took 31.3ms
T8D50 000:093.331   Found SW-DP with ID 0x2BA01477
T8D50 000:100.682   Old FW that does not support reading DPIDR via DAP jobs
T8D50 000:107.929   DPv0 detected
T8D50 000:107.950   CoreSight SoC-400 or earlier
T8D50 000:107.964   Scanning AP map to find all available APs
T8D50 000:112.676   AP[1]: Stopped AP scan as end of AP map has been reached
T8D50 000:112.697   AP[0]: AHB-AP (IDR: 0x24770011, ADDR: 0x00000000)
T8D50 000:112.711   Iterating through AP map to find AHB-AP to use
T8D50 000:120.432   AP[0]: Core found
T8D50 000:120.452   AP[0]: AHB-AP ROM base: 0xE00FF000
T8D50 000:124.335   CPUID register: 0x410FC241. Implementer code: 0x41 (ARM)
T8D50 000:124.373   Found Cortex-M4 r0p1, Little endian.
T8D50 000:125.103   -- Max. mem block: 0x00002220
T8D50 000:125.926   CPU_ReadMem(4 bytes @ 0xE000EDF0)
T8D50 000:126.662   CPU_ReadMem(4 bytes @ 0xE0002000)
T8D50 000:127.385   FPUnit: 6 code (BP) slots and 2 literal slots
T8D50 000:127.402   CPU_ReadMem(4 bytes @ 0xE000EDFC)
T8D50 000:128.015   CPU_WriteMem(4 bytes @ 0xE000EDFC)
T8D50 000:128.650   CPU_ReadMem(4 bytes @ 0xE0001000)
T8D50 000:129.249   CPU_WriteMem(4 bytes @ 0xE0001000)
T8D50 000:129.877   CPU_ReadMem(4 bytes @ 0xE000ED88)
T8D50 000:130.497   CPU_WriteMem(4 bytes @ 0xE000ED88)
T8D50 000:131.125   CPU_ReadMem(4 bytes @ 0xE000ED88)
T8D50 000:131.748   CPU_WriteMem(4 bytes @ 0xE000ED88)
T8D50 000:132.404   CoreSight components:
T8D50 000:132.424   ROMTbl[0] @ E00FF000
T8D50 000:132.435   CPU_ReadMem(64 bytes @ 0xE00FF000)
T8D50 000:133.732   CPU_ReadMem(32 bytes @ 0xE000EFE0)
T8D50 000:134.760   [0][0]: E000E000 CID B105E00D PID 000BB00C SCS-M7
T8D50 000:134.898   CPU_ReadMem(32 bytes @ 0xE0001FE0)
T8D50 000:135.911   [0][1]: E0001000 CID B105E00D PID 003BB002 DWT
T8D50 000:135.929   CPU_ReadMem(32 bytes @ 0xE0002FE0)
T8D50 000:136.901   [0][2]: E0002000 CID B105E00D PID 002BB003 FPB
T8D50 000:136.917   CPU_ReadMem(32 bytes @ 0xE0000FE0)
T8D50 000:137.784   [0][3]: E0000000 CID B105E00D PID 003BB001 ITM
T8D50 000:137.801   CPU_ReadMem(32 bytes @ 0xE0040FE0)
T8D50 000:138.801   [0][4]: E0040000 CID B105900D PID 000BB9A1 TPIU
T8D50 000:138.818   CPU_ReadMem(32 bytes @ 0xE0041FE0)
T8D50 000:139.767   [0][5]: E0041000 CID B105900D PID 000BB925 ETM
T8D50 000:140.667 - 80.324ms returns 0x2BA01477
T8D50 000:140.689 JLINK_GetDLLVersion()
T8D50 000:140.696 - 0.006ms returns 97600
T8D50 000:140.712 JLINK_CORE_GetFound()
T8D50 000:140.719 - 0.006ms returns 0xE0000FF
T8D50 000:140.730 JLINK_GetDebugInfo(0x100 = JLINKARM_ROM_TABLE_ADDR_INDEX)
T8D50 000:140.739   Value=0xE00FF000
T8D50 000:140.748 - 0.018ms returns 0
T8D50 000:140.795 JLINK_GetDebugInfo(0x100 = JLINKARM_ROM_TABLE_ADDR_INDEX)
T8D50 000:140.801   Value=0xE00FF000
T8D50 000:140.811 - 0.016ms returns 0
T8D50 000:140.820 JLINK_GetDebugInfo(0x101 = JLINKARM_DEBUG_INFO_ETM_ADDR_INDEX)
T8D50 000:140.826   Value=0xE0041000
T8D50 000:140.835 - 0.016ms returns 0
T8D50 000:140.850 JLINK_ReadMemEx(0xE0041FD0, 0x20 Bytes, Flags = 0x02000004)
T8D50 000:140.876   CPU_ReadMem(32 bytes @ 0xE0041FD0)
T8D50 000:141.765   Data:  04 00 00 00 00 00 00 00 00 00 00 00 00 00 00 00 ...
T8D50 000:141.782 - 0.932ms returns 32 (0x20)
T8D50 000:141.793 JLINK_GetDebugInfo(0x102 = JLINKARM_DEBUG_INFO_MTB_ADDR_INDEX)
T8D50 000:141.799   Value=0x00000000
T8D50 000:141.809 - 0.016ms returns 0
T8D50 000:141.817 JLINK_GetDebugInfo(0x103 = JLINKARM_DEBUG_INFO_TPIU_ADDR_INDEX)
T8D50 000:141.823   Value=0xE0040000
T8D50 000:141.833 - 0.016ms returns 0
T8D50 000:141.841 JLINK_GetDebugInfo(0x104 = JLINKARM_DEBUG_INFO_ITM_ADDR_INDEX)
T8D50 000:141.850   Value=0xE0000000
T8D50 000:141.860 - 0.019ms returns 0
T8D50 000:141.868 JLINK_GetDebugInfo(0x105 = JLINKARM_DEBUG_INFO_DWT_ADDR_INDEX)
T8D50 000:141.874   Value=0xE0001000
T8D50 000:141.883 - 0.015ms returns 0
T8D50 000:141.892 JLINK_GetDebugInfo(0x106 = JLINKARM_DEBUG_INFO_FPB_ADDR_INDEX)
T8D50 000:141.898   Value=0xE0002000
T8D50 000:141.907 - 0.015ms returns 0
T8D50 000:141.915 JLINK_GetDebugInfo(0x107 = JLINKARM_DEBUG_INFO_NVIC_ADDR_INDEX)
T8D50 000:141.921   Value=0xE000E000
T8D50 000:141.931 - 0.015ms returns 0
T8D50 000:141.939 JLINK_GetDebugInfo(0x10C = JLINKARM_DEBUG_INFO_DBG_ADDR_INDEX)
T8D50 000:141.945   Value=0xE000EDF0
T8D50 000:141.954 - 0.015ms returns 0
T8D50 000:141.962 JLINK_ReadMemU32(0xE000EF40, 0x1 Items)
T8D50 000:141.972   CPU_ReadMem(4 bytes @ 0xE000EF40)
T8D50 000:142.630   Data:  21 00 11 10
T8D50 000:142.642 - 0.679ms returns 1 (0x1)
T8D50 000:142.651 JLINK_ReadMemU32(0xE000EF44, 0x1 Items)
T8D50 000:142.659   CPU_ReadMem(4 bytes @ 0xE000EF44)
T8D50 000:143.339   Data:  11 00 00 11
T8D50 000:143.371 - 0.719ms returns 1 (0x1)
T8D50 000:143.392 JLINK_ReadMemU32(0xE000ED00, 0x1 Items)
T8D50 000:143.409   CPU_ReadMem(4 bytes @ 0xE000ED00)
T8D50 000:144.102   Data:  41 C2 0F 41
T8D50 000:144.113   Debug reg: CPUID
T8D50 000:144.122 - 0.731ms returns 1 (0x1)
T8D50 000:144.132 JLINK_GetDebugInfo(0x10F = JLINKARM_DEBUG_INFO_HAS_CORTEX_M_SECURITY_EXT_INDEX)
T8D50 000:144.139   Value=0x00000000
T8D50 000:144.149 - 0.016ms returns 0
T8D50 000:144.157 JLINK_HasError()
T8D50 000:144.167 JLINK_SetResetType(JLINKARM_CM3_RESET_TYPE_NORMAL)
T8D50 000:144.174 - 0.007ms returns JLINKARM_CM3_RESET_TYPE_NORMAL
T8D50 000:144.189 JLINK_Reset()
T8D50 000:144.202   JLINK_GetResetTypeDesc
T8D50 000:144.213   - 0.010ms 
T8D50 000:144.234   Reset type: NORMAL (https://kb.segger.com/J-Link_Reset_Strategies)
T8D50 000:144.249   CPU is running
T8D50 000:144.261   CPU_WriteMem(4 bytes @ 0xE000EDF0)
T8D50 000:144.866   CPU is running
T8D50 000:144.877   CPU_WriteMem(4 bytes @ 0xE000EDFC)
T8D50 000:145.500   Reset: Halt core after reset via DEMCR.VC_CORERESET.
T8D50 000:146.315   Reset: Reset device via AIRCR.SYSRESETREQ.
T8D50 000:146.336   CPU is running
T8D50 000:146.354   CPU_WriteMem(4 bytes @ 0xE000ED0C)
T8D50 000:201.312   CPU_ReadMem(4 bytes @ 0xE000EDF0)
T8D50 000:202.029   CPU_ReadMem(4 bytes @ 0xE000EDF0)
T8D50 000:207.493   CPU_WriteMem(4 bytes @ 0xE000EDFC)
T8D50 000:214.451   CPU_ReadMem(4 bytes @ 0xE000EDF0)
T8D50 000:219.883   CPU_WriteMem(4 bytes @ 0xE0002000)
T8D50 000:220.522   CPU_ReadMem(4 bytes @ 0xE000EDFC)
T8D50 000:221.142   CPU_ReadMem(4 bytes @ 0xE0001000)
T8D50 000:221.753 - 77.563ms 
T8D50 000:221.816 JLINK_HasError()
T8D50 000:221.830 JLINK_ReadReg(R15 (PC))
T8D50 000:221.839 - 0.012ms returns 0x080002E8
T8D50 000:221.848 JLINK_ReadReg(XPSR)
T8D50 000:221.854 - 0.006ms returns 0x01000000
T8D50 000:221.864 JLINK_Halt()
T8D50 000:221.870 - 0.006ms returns 0x00
T8D50 000:221.879 JLINK_ReadMemU32(0xE000EDF0, 0x1 Items)
T8D50 000:221.892   CPU_ReadMem(4 bytes @ 0xE000EDF0)
T8D50 000:222.500   Data:  03 00 03 00
T8D50 000:222.511   Debug reg: DHCSR
T8D50 000:222.520 - 0.641ms returns 1 (0x1)
T8D50 000:222.531 JLINK_WriteU32(0xE000EDF0, 0xA05F0003)
T8D50 000:222.537   Debug reg: DHCSR
T8D50 000:222.955   CPU_WriteMem(4 bytes @ 0xE000EDF0)
T8D50 000:223.662 - 1.131ms returns 0 (0x00000000)
T8D50 000:223.673 JLINK_WriteU32(0xE000EDFC, 0x01000000)
T8D50 000:223.680   Debug reg: DEMCR
T8D50 000:223.691   CPU_WriteMem(4 bytes @ 0xE000EDFC)
T8D50 000:224.376 - 0.702ms returns 0 (0x00000000)
T8D50 000:224.432 JLINK_GetHWStatus(...)
T8D50 000:224.857 - 0.428ms returns 0
T8D50 000:224.885 JLINK_GetNumBPUnits(Type = 0xFFFFFF00)
T8D50 000:224.892 - 0.007ms returns 0x06
T8D50 000:224.900 JLINK_GetNumBPUnits(Type = 0xF0)
T8D50 000:224.907 - 0.006ms returns 0x2000
T8D50 000:224.915 JLINK_GetNumWPUnits()
T8D50 000:224.922 - 0.006ms returns 4
T8D50 000:224.941 JLINK_GetSpeed()
T8D50 000:224.951 - 0.010ms returns 2000
T8D50 000:224.968 JLINK_ReadMemU32(0xE000E004, 0x1 Items)
T8D50 000:224.977   CPU_ReadMem(4 bytes @ 0xE000E004)
T8D50 000:225.616   Data:  02 00 00 00
T8D50 000:225.628 - 0.660ms returns 1 (0x1)
T8D50 000:225.638 JLINK_ReadMemU32(0xE000E004, 0x1 Items)
T8D50 000:225.646   CPU_ReadMem(4 bytes @ 0xE000E004)
T8D50 000:226.255   Data:  02 00 00 00
T8D50 000:226.266 - 0.628ms returns 1 (0x1)
T8D50 000:226.288 JLINK_WriteMemEx(0xE0001000, 0x0000001C Bytes, Flags = 0x02000004)
T8D50 000:226.295   Data:  01 00 00 00 00 00 00 00 00 00 00 00 00 00 00 00 ...
T8D50 000:226.308   CPU_WriteMem(28 bytes @ 0xE0001000)
T8D50 000:227.318 - 1.029ms returns 0x1C
T8D50 000:227.363 JLINK_HasError()
T8D50 000:227.390 JLINK_ReadReg(R15 (PC))
T8D50 000:227.411 - 0.021ms returns 0x080002E8
T8D50 000:227.429 JLINK_ReadReg(XPSR)
T8D50 000:227.442 - 0.013ms returns 0x01000000
T8D50 000:324.760 JLINK_HasError()
T8D50 000:324.785 JLINK_SetResetType(JLINKARM_CM3_RESET_TYPE_NORMAL)
T8D50 000:324.794 - 0.008ms returns JLINKARM_CM3_RESET_TYPE_NORMAL
T8D50 000:324.803 JLINK_Reset()
T8D50 000:324.819   JLINK_GetResetTypeDesc
T8D50 000:324.826   - 0.007ms 
T8D50 000:324.846   Reset type: NORMAL (https://kb.segger.com/J-Link_Reset_Strategies)
T8D50 000:324.856   CPU_WriteMem(4 bytes @ 0xE000EDF0)
T8D50 000:325.529   CPU_WriteMem(4 bytes @ 0xE000EDFC)
T8D50 000:326.153   Reset: Halt core after reset via DEMCR.VC_CORERESET.
T8D50 000:326.962   Reset: Reset device via AIRCR.SYSRESETREQ.
T8D50 000:326.993   CPU_WriteMem(4 bytes @ 0xE000ED0C)
T8D50 000:382.070   CPU_ReadMem(4 bytes @ 0xE000EDF0)
T8D50 000:382.747   CPU_ReadMem(4 bytes @ 0xE000EDF0)
T8D50 000:383.385   CPU_WriteMem(4 bytes @ 0xE000EDFC)
T8D50 000:389.692   CPU_ReadMem(4 bytes @ 0xE000EDF0)
T8D50 000:395.265   CPU_WriteMem(4 bytes @ 0xE0002000)
T8D50 000:395.911   CPU_ReadMem(4 bytes @ 0xE000EDFC)
T8D50 000:396.505   CPU_ReadMem(4 bytes @ 0xE0001000)
T8D50 000:397.121 - 72.318ms 
T8D50 000:397.280 JLINK_HasError()
T8D50 000:397.291 JLINK_ReadReg(R15 (PC))
T8D50 000:397.299 - 0.007ms returns 0x080002E8
T8D50 000:397.307 JLINK_ReadReg(XPSR)
T8D50 000:397.314 - 0.007ms returns 0x01000000
T8D50 000:397.747 JLINK_ReadMemEx(0x080001E8, 0x3C Bytes, Flags = 0x02000000)
T8D50 000:397.773   CPU_ReadMem(128 bytes @ 0x080001C0)
T8D50 000:399.612    -- Updating C cache (128 bytes @ 0x080001C0)
T8D50 000:399.629    -- Read from C cache (60 bytes @ 0x080001E8)
T8D50 000:399.642   Data:  10 3A 28 BF 78 C1 FB D8 52 07 28 BF 30 C1 48 BF ...
T8D50 000:399.651 - 1.904ms returns 60 (0x3C)
T8D50 000:399.670 JLINK_ReadMemEx(0x08000224, 0x3C Bytes, Flags = 0x02000000)
T8D50 000:399.680   CPU_ReadMem(64 bytes @ 0x08000240)
T8D50 000:401.098    -- Updating C cache (64 bytes @ 0x08000240)
T8D50 000:401.117    -- Read from C cache (60 bytes @ 0x08000224)
T8D50 000:401.136   Data:  F5 F9 00 00 2C 4B 19 68 08 68 B0 E8 F0 4F 80 F3 ...
T8D50 000:401.154 - 1.483ms returns 60 (0x3C)
T8D50 000:401.179 JLINK_ReadMemEx(0x08000260, 0x3C Bytes, Flags = 0x02000000)
T8D50 000:401.195   CPU_ReadMem(64 bytes @ 0x08000280)
T8D50 000:402.459    -- Updating C cache (64 bytes @ 0x08000280)
T8D50 000:402.469    -- Read from C cache (60 bytes @ 0x08000260)
T8D50 000:402.480   Data:  4F 8F BF F3 6F 8F 00 DF 00 BF 00 BF 08 ED 00 E0 ...
T8D50 000:402.489 - 1.310ms returns 60 (0x3C)
T8D50 000:402.502 JLINK_ReadMemEx(0x0800029C, 0x3C Bytes, Flags = 0x02000000)
T8D50 000:402.510   CPU_ReadMem(64 bytes @ 0x080002C0)
T8D50 000:403.718    -- Updating C cache (64 bytes @ 0x080002C0)
T8D50 000:403.729    -- Read from C cache (60 bytes @ 0x0800029C)
T8D50 000:403.739   Data:  F0 4F 10 60 09 B4 4F F0 50 00 80 F3 11 88 BF F3 ...
T8D50 000:403.749 - 1.247ms returns 60 (0x3C)
T8D50 000:403.761 JLINK_ReadMemEx(0x080002D8, 0x3C Bytes, Flags = 0x02000000)
T8D50 000:403.769   CPU_ReadMem(64 bytes @ 0x08000300)
T8D50 000:405.029    -- Updating C cache (64 bytes @ 0x08000300)
T8D50 000:405.045    -- Read from C cache (60 bytes @ 0x080002D8)
T8D50 000:405.057   Data:  6F 8F 70 47 30 00 00 20 EF F3 05 80 70 47 00 00 ...
T8D50 000:405.120 - 1.358ms returns 60 (0x3C)
T8D50 002:319.508 JLINK_HasError()
T8D50 002:319.558 JLINK_ReadReg(R0)
T8D50 002:320.196 - 0.654ms returns 0x00000000
T8D50 002:320.214 JLINK_ReadReg(R1)
T8D50 002:320.221 - 0.007ms returns 0x00000000
T8D50 002:320.229 JLINK_ReadReg(R2)
T8D50 002:320.235 - 0.006ms returns 0x00000000
T8D50 002:320.244 JLINK_ReadReg(R3)
T8D50 002:320.250 - 0.006ms returns 0x00000000
T8D50 002:320.258 JLINK_ReadReg(R4)
T8D50 002:320.264 - 0.006ms returns 0x00000000
T8D50 002:320.272 JLINK_ReadReg(R5)
T8D50 002:320.279 - 0.006ms returns 0x00000000
T8D50 002:320.287 JLINK_ReadReg(R6)
T8D50 002:320.298 - 0.010ms returns 0x00000000
T8D50 002:320.306 JLINK_ReadReg(R7)
T8D50 002:320.312 - 0.006ms returns 0x00000000
T8D50 002:320.320 JLINK_ReadReg(R8)
T8D50 002:320.327 - 0.007ms returns 0x00000000
T8D50 002:320.335 JLINK_ReadReg(R9)
T8D50 002:320.342 - 0.006ms returns 0x00000000
T8D50 002:320.350 JLINK_ReadReg(R10)
T8D50 002:320.356 - 0.006ms returns 0x00000000
T8D50 002:320.364 JLINK_ReadReg(R11)
T8D50 002:320.371 - 0.006ms returns 0x00000000
T8D50 002:320.379 JLINK_ReadReg(R12)
T8D50 002:320.386 - 0.006ms returns 0x00000000
T8D50 002:320.394 JLINK_ReadReg(R13 (SP))
T8D50 002:320.400 - 0.006ms returns 0x20005100
T8D50 002:320.408 JLINK_ReadReg(R14)
T8D50 002:320.415 - 0.006ms returns 0xFFFFFFFF
T8D50 002:320.423 JLINK_ReadReg(R15 (PC))
T8D50 002:320.430 - 0.006ms returns 0x080002E8
T8D50 002:320.438 JLINK_ReadReg(XPSR)
T8D50 002:320.445 - 0.006ms returns 0x01000000
T8D50 002:320.453 JLINK_ReadReg(MSP)
T8D50 002:320.459 - 0.006ms returns 0x20005100
T8D50 002:320.467 JLINK_ReadReg(PSP)
T8D50 002:320.473 - 0.006ms returns 0x00000000
T8D50 002:320.481 JLINK_ReadReg(CFBP)
T8D50 002:320.488 - 0.006ms returns 0x00000000
T8D50 002:320.496 JLINK_ReadReg(FPSCR)
T8D50 002:327.971 - 7.474ms returns 0x00000000
T8D50 002:327.988 JLINK_ReadReg(FPS0)
T8D50 002:327.996 - 0.007ms returns 0x00000000
T8D50 002:328.004 JLINK_ReadReg(FPS1)
T8D50 002:328.011 - 0.006ms returns 0x00000000
T8D50 002:328.019 JLINK_ReadReg(FPS2)
T8D50 002:328.025 - 0.006ms returns 0x00000000
T8D50 002:328.033 JLINK_ReadReg(FPS3)
T8D50 002:328.040 - 0.006ms returns 0x00000000
T8D50 002:328.048 JLINK_ReadReg(FPS4)
T8D50 002:328.054 - 0.006ms returns 0x00000000
T8D50 002:328.062 JLINK_ReadReg(FPS5)
T8D50 002:328.068 - 0.006ms returns 0x00000000
T8D50 002:328.077 JLINK_ReadReg(FPS6)
T8D50 002:328.083 - 0.006ms returns 0x00000000
T8D50 002:328.091 JLINK_ReadReg(FPS7)
T8D50 002:328.097 - 0.006ms returns 0x00000000
T8D50 002:328.105 JLINK_ReadReg(FPS8)
T8D50 002:328.112 - 0.006ms returns 0x00000000
T8D50 002:328.120 JLINK_ReadReg(FPS9)
T8D50 002:328.126 - 0.006ms returns 0x00000000
T8D50 002:328.134 JLINK_ReadReg(FPS10)
T8D50 002:328.140 - 0.006ms returns 0x00000000
T8D50 002:328.154 JLINK_ReadReg(FPS11)
T8D50 002:328.161 - 0.006ms returns 0x00000000
T8D50 002:328.168 JLINK_ReadReg(FPS12)
T8D50 002:328.175 - 0.006ms returns 0x00000000
T8D50 002:328.183 JLINK_ReadReg(FPS13)
T8D50 002:328.189 - 0.006ms returns 0x00000000
T8D50 002:328.197 JLINK_ReadReg(FPS14)
T8D50 002:328.204 - 0.006ms returns 0x00000000
T8D50 002:328.212 JLINK_ReadReg(FPS15)
T8D50 002:328.218 - 0.006ms returns 0x00000000
T8D50 002:328.226 JLINK_ReadReg(FPS16)
T8D50 002:328.232 - 0.006ms returns 0x00000000
T8D50 002:328.240 JLINK_ReadReg(FPS17)
T8D50 002:328.247 - 0.006ms returns 0x00000000
T8D50 002:328.255 JLINK_ReadReg(FPS18)
T8D50 002:328.261 - 0.006ms returns 0x00000000
T8D50 002:328.269 JLINK_ReadReg(FPS19)
T8D50 002:328.276 - 0.006ms returns 0x00000000
T8D50 002:328.284 JLINK_ReadReg(FPS20)
T8D50 002:328.290 - 0.006ms returns 0x00000000
T8D50 002:328.298 JLINK_ReadReg(FPS21)
T8D50 002:328.304 - 0.006ms returns 0x00000000
T8D50 002:328.312 JLINK_ReadReg(FPS22)
T8D50 002:328.319 - 0.006ms returns 0x00000000
T8D50 002:328.326 JLINK_ReadReg(FPS23)
T8D50 002:328.333 - 0.006ms returns 0x00000000
T8D50 002:328.341 JLINK_ReadReg(FPS24)
T8D50 002:328.351 - 0.010ms returns 0x00000000
T8D50 002:328.361 JLINK_ReadReg(FPS25)
T8D50 002:328.367 - 0.006ms returns 0x00000000
T8D50 002:328.375 JLINK_ReadReg(FPS26)
T8D50 002:328.382 - 0.006ms returns 0x00000000
T8D50 002:328.390 JLINK_ReadReg(FPS27)
T8D50 002:328.396 - 0.006ms returns 0x00000000
T8D50 002:328.404 JLINK_ReadReg(FPS28)
T8D50 002:328.410 - 0.006ms returns 0x00000000
T8D50 002:328.418 JLINK_ReadReg(FPS29)
T8D50 002:328.425 - 0.006ms returns 0x00000000
T8D50 002:328.433 JLINK_ReadReg(FPS30)
T8D50 002:328.439 - 0.006ms returns 0x00000000
T8D50 002:328.447 JLINK_ReadReg(FPS31)
T8D50 002:328.453 - 0.006ms returns 0x00000000
T8C38 002:381.400 JLINK_ReadMemEx(0x080002E8, 0x2 Bytes, Flags = 0x02000000)
T8C38 002:381.428    -- Read from C cache (2 bytes @ 0x080002E8)
T8C38 002:381.439   Data:  09 48
T8C38 002:381.450 - 0.050ms returns 2 (0x2)
T8C38 002:381.460 JLINK_HasError()
T8C38 002:381.470 JLINK_SetBPEx(Addr = 0x08002552, Type = 0xFFFFFFF2)
T8C38 002:381.479 - 0.008ms returns 0x00000001
T8C38 002:381.487 JLINK_HasError()
T8C38 002:381.495 JLINK_SetBPEx(Addr = 0x08000800, Type = 0xFFFFFFF2)
T8C38 002:381.502 - 0.006ms returns 0x00000002
T8C38 002:381.511 JLINK_HasError()
T8C38 002:381.519 JLINK_HasError()
T8C38 002:381.534 JLINK_Go()
T8C38 002:381.550   CPU_WriteMem(4 bytes @ 0xE0002000)
T8C38 002:382.617   CPU_WriteMem(4 bytes @ 0xE0002000)
T8C38 002:383.338   CPU_ReadMem(4 bytes @ 0xE0001000)
T8C38 002:383.932   CPU_WriteMem(4 bytes @ 0xE0002008)
T8C38 002:383.954   CPU_WriteMem(4 bytes @ 0xE000200C)
T8C38 002:383.967   CPU_WriteMem(4 bytes @ 0xE0002010)
T8C38 002:383.982   CPU_WriteMem(4 bytes @ 0xE0002014)
T8C38 002:383.991   CPU_WriteMem(4 bytes @ 0xE0002018)
T8C38 002:384.000   CPU_WriteMem(4 bytes @ 0xE000201C)
T8C38 002:386.532   CPU_WriteMem(4 bytes @ 0xE0001004)
T8C38 002:388.958   Memory map 'after startup completion point' is active
T8C38 002:388.980 - 7.445ms 
T8C38 002:489.148 JLINK_HasError()
T8C38 002:489.195 JLINK_IsHalted()
T8C38 002:494.120 - 4.923ms returns TRUE
T8C38 002:494.155 JLINK_HasError()
T8C38 002:494.171 JLINK_Halt()
T8C38 002:494.183 - 0.011ms returns 0x00
T8C38 002:494.199 JLINK_IsHalted()
T8C38 002:494.209 - 0.009ms returns TRUE
T8C38 002:494.224 JLINK_IsHalted()
T8C38 002:494.234 - 0.008ms returns TRUE
T8C38 002:494.248 JLINK_IsHalted()
T8C38 002:494.260 - 0.012ms returns TRUE
T8C38 002:494.277 JLINK_HasError()
T8C38 002:494.328 JLINK_ReadReg(R15 (PC))
T8C38 002:494.349 - 0.020ms returns 0x08002552
T8C38 002:494.361 JLINK_ReadReg(XPSR)
T8C38 002:494.370 - 0.009ms returns 0x21000000
T8C38 002:494.385 JLINK_HasError()
T8C38 002:494.397 JLINK_ClrBPEx(BPHandle = 0x00000001)
T8C38 002:494.405 - 0.007ms returns 0x00
T8C38 002:494.414 JLINK_HasError()
T8C38 002:494.426 JLINK_ClrBPEx(BPHandle = 0x00000002)
T8C38 002:494.435 - 0.009ms returns 0x00
T8C38 002:494.446 JLINK_HasError()
T8C38 002:494.455 JLINK_HasError()
T8C38 002:494.464 JLINK_ReadMemU32(0xE000ED30, 0x1 Items)
T8C38 002:494.483   CPU_ReadMem(4 bytes @ 0xE000ED30)
T8C38 002:495.198   Data:  02 00 00 00
T8C38 002:495.218 - 0.754ms returns 1 (0x1)
T8C38 002:495.234 JLINK_ReadMemU32(0xE0001028, 0x1 Items)
T8C38 002:495.248   CPU_ReadMem(4 bytes @ 0xE0001028)
T8C38 002:495.937   Data:  00 00 00 00
T8C38 002:495.958   Debug reg: DWT_FUNC[0]
T8C38 002:495.972 - 0.738ms returns 1 (0x1)
T8C38 002:495.986 JLINK_ReadMemU32(0xE0001038, 0x1 Items)
T8C38 002:495.998   CPU_ReadMem(4 bytes @ 0xE0001038)
T8C38 002:496.709   Data:  00 02 00 00
T8C38 002:496.729   Debug reg: DWT_FUNC[1]
T8C38 002:496.742 - 0.756ms returns 1 (0x1)
T8C38 002:496.756 JLINK_ReadMemU32(0xE0001048, 0x1 Items)
T8C38 002:496.768   CPU_ReadMem(4 bytes @ 0xE0001048)
T8C38 002:497.472   Data:  00 00 00 00
T8C38 002:497.491   Debug reg: DWT_FUNC[2]
T8C38 002:497.503 - 0.746ms returns 1 (0x1)
T8C38 002:497.515 JLINK_ReadMemU32(0xE0001058, 0x1 Items)
T8C38 002:497.526   CPU_ReadMem(4 bytes @ 0xE0001058)
T8C38 002:498.189   Data:  00 00 00 00
T8C38 002:498.212   Debug reg: DWT_FUNC[3]
T8C38 002:498.484 - 0.968ms returns 1 (0x1)
T8C38 002:498.662 JLINK_HasError()
T8C38 002:498.681 JLINK_ReadReg(R0)
T8C38 002:498.693 - 0.012ms returns 0x20004B00
T8C38 002:498.706 JLINK_ReadReg(R1)
T8C38 002:498.719 - 0.012ms returns 0x20004D00
T8C38 002:498.731 JLINK_ReadReg(R2)
T8C38 002:498.740 - 0.008ms returns 0x20004D00
T8C38 002:498.750 JLINK_ReadReg(R3)
T8C38 002:498.761 - 0.010ms returns 0x20004D00
T8C38 002:498.770 JLINK_ReadReg(R4)
T8C38 002:498.777 - 0.006ms returns 0x00000000
T8C38 002:498.785 JLINK_ReadReg(R5)
T8C38 002:498.791 - 0.006ms returns 0x20004A9C
T8C38 002:498.800 JLINK_ReadReg(R6)
T8C38 002:498.806 - 0.006ms returns 0x00000000
T8C38 002:498.814 JLINK_ReadReg(R7)
T8C38 002:498.821 - 0.006ms returns 0x00000000
T8C38 002:498.829 JLINK_ReadReg(R8)
T8C38 002:498.835 - 0.006ms returns 0x00000000
T8C38 002:498.844 JLINK_ReadReg(R9)
T8C38 002:498.850 - 0.006ms returns 0x00000000
T8C38 002:498.858 JLINK_ReadReg(R10)
T8C38 002:498.865 - 0.006ms returns 0x080046AC
T8C38 002:498.873 JLINK_ReadReg(R11)
T8C38 002:498.879 - 0.006ms returns 0x00000000
T8C38 002:498.887 JLINK_ReadReg(R12)
T8C38 002:498.894 - 0.006ms returns 0x20004ADC
T8C38 002:498.902 JLINK_ReadReg(R13 (SP))
T8C38 002:498.908 - 0.006ms returns 0x20005100
T8C38 002:498.917 JLINK_ReadReg(R14)
T8C38 002:498.923 - 0.006ms returns 0x08000217
T8C38 002:498.931 JLINK_ReadReg(R15 (PC))
T8C38 002:498.938 - 0.006ms returns 0x08002552
T8C38 002:498.946 JLINK_ReadReg(XPSR)
T8C38 002:498.952 - 0.006ms returns 0x21000000
T8C38 002:498.960 JLINK_ReadReg(MSP)
T8C38 002:498.967 - 0.006ms returns 0x20005100
T8C38 002:498.975 JLINK_ReadReg(PSP)
T8C38 002:498.981 - 0.006ms returns 0x00000000
T8C38 002:498.990 JLINK_ReadReg(CFBP)
T8C38 002:498.996 - 0.006ms returns 0x04000000
T8C38 002:499.004 JLINK_ReadReg(FPSCR)
T8C38 002:506.347 - 7.342ms returns 0x03000000
T8C38 002:506.372 JLINK_ReadReg(FPS0)
T8C38 002:506.384 - 0.012ms returns 0x00000000
T8C38 002:506.397 JLINK_ReadReg(FPS1)
T8C38 002:506.406 - 0.009ms returns 0x00000000
T8C38 002:506.419 JLINK_ReadReg(FPS2)
T8C38 002:506.429 - 0.009ms returns 0x00000000
T8C38 002:506.441 JLINK_ReadReg(FPS3)
T8C38 002:506.452 - 0.010ms returns 0x00000000
T8C38 002:506.464 JLINK_ReadReg(FPS4)
T8C38 002:506.473 - 0.009ms returns 0x00000000
T8C38 002:506.486 JLINK_ReadReg(FPS5)
T8C38 002:506.496 - 0.010ms returns 0x00000000
T8C38 002:506.509 JLINK_ReadReg(FPS6)
T8C38 002:506.519 - 0.009ms returns 0x00000000
T8C38 002:506.532 JLINK_ReadReg(FPS7)
T8C38 002:506.541 - 0.009ms returns 0x00000000
T8C38 002:506.554 JLINK_ReadReg(FPS8)
T8C38 002:506.563 - 0.009ms returns 0x00000000
T8C38 002:506.574 JLINK_ReadReg(FPS9)
T8C38 002:506.585 - 0.010ms returns 0x00000000
T8C38 002:506.597 JLINK_ReadReg(FPS10)
T8C38 002:506.608 - 0.010ms returns 0x00000000
T8C38 002:506.620 JLINK_ReadReg(FPS11)
T8C38 002:506.630 - 0.009ms returns 0x00000000
T8C38 002:506.643 JLINK_ReadReg(FPS12)
T8C38 002:506.653 - 0.009ms returns 0x00000000
T8C38 002:506.752 JLINK_ReadReg(FPS13)
T8C38 002:506.765 - 0.012ms returns 0x00000000
T8C38 002:506.778 JLINK_ReadReg(FPS14)
T8C38 002:506.787 - 0.009ms returns 0x00000000
T8C38 002:506.799 JLINK_ReadReg(FPS15)
T8C38 002:506.810 - 0.010ms returns 0x00000000
T8C38 002:506.821 JLINK_ReadReg(FPS16)
T8C38 002:506.830 - 0.009ms returns 0x00000000
T8C38 002:506.842 JLINK_ReadReg(FPS17)
T8C38 002:506.852 - 0.009ms returns 0x00000000
T8C38 002:506.864 JLINK_ReadReg(FPS18)
T8C38 002:506.873 - 0.009ms returns 0x00000000
T8C38 002:506.884 JLINK_ReadReg(FPS19)
T8C38 002:506.894 - 0.010ms returns 0x00000000
T8C38 002:506.906 JLINK_ReadReg(FPS20)
T8C38 002:506.916 - 0.009ms returns 0x00000000
T8C38 002:506.927 JLINK_ReadReg(FPS21)
T8C38 002:506.937 - 0.010ms returns 0x00000000
T8C38 002:506.949 JLINK_ReadReg(FPS22)
T8C38 002:506.959 - 0.010ms returns 0x00000000
T8C38 002:506.971 JLINK_ReadReg(FPS23)
T8C38 002:506.981 - 0.010ms returns 0x00000000
T8C38 002:506.992 JLINK_ReadReg(FPS24)
T8C38 002:507.003 - 0.010ms returns 0x00000000
T8C38 002:507.015 JLINK_ReadReg(FPS25)
T8C38 002:507.031 - 0.016ms returns 0x00000000
T8C38 002:507.043 JLINK_ReadReg(FPS26)
T8C38 002:507.053 - 0.009ms returns 0x00000000
T8C38 002:507.064 JLINK_ReadReg(FPS27)
T8C38 002:507.075 - 0.010ms returns 0x00000000
T8C38 002:507.086 JLINK_ReadReg(FPS28)
T8C38 002:507.095 - 0.008ms returns 0x00000000
T8C38 002:507.108 JLINK_ReadReg(FPS29)
T8C38 002:507.118 - 0.010ms returns 0x00000000
T8C38 002:507.130 JLINK_ReadReg(FPS30)
T8C38 002:507.141 - 0.010ms returns 0x00000000
T8C38 002:507.152 JLINK_ReadReg(FPS31)
T8C38 002:507.163 - 0.010ms returns 0x00000000
T8D50 002:624.153 JLINK_HasError()
T8D50 002:624.176 JLINK_ReadMemU32(0xE0001004, 0x1 Items)
T8D50 002:624.197   CPU_ReadMem(4 bytes @ 0xE0001004)
T8D50 002:624.801   Data:  68 29 00 00
T8D50 002:624.818   Debug reg: DWT_CYCCNT
T8D50 002:624.828 - 0.651ms returns 1 (0x1)
T8D50 002:627.149 JLINK_ReadMemEx(0x08002452, 0x2 Bytes, Flags = 0x02000000)
T8D50 002:627.172   CPU_ReadMem(64 bytes @ 0x08002440)
T8D50 002:628.392    -- Updating C cache (64 bytes @ 0x08002440)
T8D50 002:628.409    -- Read from C cache (2 bytes @ 0x08002452)
T8D50 002:628.419   Data:  1A 43
T8D50 002:628.429 - 1.280ms returns 2 (0x2)
T8D50 002:628.440 JLINK_ReadMemEx(0x08002454, 0x3C Bytes, Flags = 0x02000000)
T8D50 002:628.449   CPU_ReadMem(64 bytes @ 0x08002480)
T8D50 002:629.638    -- Updating C cache (64 bytes @ 0x08002480)
T8D50 002:629.655    -- Read from C cache (60 bytes @ 0x08002454)
T8D50 002:629.665   Data:  20 4B 98 42 20 D0 B0 F1 80 4F 1D D0 1E 4B 98 42 ...
T8D50 002:629.675 - 1.235ms returns 60 (0x3C)
T8D50 002:629.697 JLINK_ReadMemEx(0x08002490, 0x3C Bytes, Flags = 0x02000000)
T8D50 002:629.706   CPU_ReadMem(64 bytes @ 0x080024C0)
T8D50 002:630.878    -- Updating C cache (64 bytes @ 0x080024C0)
T8D50 002:630.889    -- Read from C cache (60 bytes @ 0x08002490)
T8D50 002:630.900   Data:  1A 4B 98 42 02 D0 1A 4B 98 42 03 D1 22 F4 40 72 ...
T8D50 002:630.909 - 1.212ms returns 60 (0x3C)
T8D50 002:630.923 JLINK_ReadMemEx(0x080024CC, 0x3C Bytes, Flags = 0x02000000)
T8D50 002:630.948   CPU_ReadMem(64 bytes @ 0x08002500)
T8D50 002:632.150    -- Updating C cache (64 bytes @ 0x08002500)
T8D50 002:632.173    -- Read from C cache (60 bytes @ 0x080024CC)
T8D50 002:632.198   Data:  03 60 01 23 43 61 02 60 10 BD 00 00 00 00 01 40 ...
T8D50 002:632.212 - 1.289ms returns 60 (0x3C)
T8D50 002:632.231 JLINK_ReadMemEx(0x08002508, 0x3C Bytes, Flags = 0x02000000)
T8D50 002:632.244   CPU_ReadMem(64 bytes @ 0x08002540)
T8D50 002:633.524    -- Updating C cache (64 bytes @ 0x08002540)
T8D50 002:633.541    -- Read from C cache (60 bytes @ 0x08002508)
T8D50 002:633.551   Data:  02 48 00 68 C0 F3 02 20 70 47 00 00 0C ED 00 E0 ...
T8D50 002:633.561 - 1.330ms returns 60 (0x3C)
T8D50 002:633.578 JLINK_ReadMemEx(0x08002544, 0x3C Bytes, Flags = 0x02000000)
T8D50 002:633.585    -- Read from C cache (60 bytes @ 0x08002544)
T8D50 002:633.595   Data:  70 47 EF F3 10 80 70 47 80 F3 10 88 70 47 FF F7 ...
T8D50 002:633.604 - 0.027ms returns 60 (0x3C)
T8D50 005:070.088 JLINK_ReadMemEx(0x200001C6, 0x2 Bytes, Flags = 0x02000000)
T8D50 005:070.154   CPU_ReadMem(64 bytes @ 0x200001C0)
T8D50 005:071.493    -- Updating C cache (64 bytes @ 0x200001C0)
T8D50 005:071.523    -- Read from C cache (2 bytes @ 0x200001C6)
T8D50 005:071.537   Data:  00 00
T8D50 005:071.551 - 1.463ms returns 2 (0x2)
T8D50 005:928.210 JLINK_ReadMemEx(0x200001BC, 0x2 Bytes, Flags = 0x02000000)
T8D50 005:928.277   CPU_ReadMem(64 bytes @ 0x20000180)
T8D50 005:929.640    -- Updating C cache (64 bytes @ 0x20000180)
T8D50 005:929.675    -- Read from C cache (2 bytes @ 0x200001BC)
T8D50 005:929.695   Data:  00 00
T8D50 005:929.715 - 1.506ms returns 2 (0x2)
T8D50 005:929.788 JLINK_ReadMemEx(0x200001BE, 0x2 Bytes, Flags = 0x02000000)
T8D50 005:929.805    -- Read from C cache (2 bytes @ 0x200001BE)
T8D50 005:929.823   Data:  00 00
T8D50 005:929.842 - 0.054ms returns 2 (0x2)
T8D50 005:929.855 JLINK_ReadMemEx(0x200001C0, 0x2 Bytes, Flags = 0x02000000)
T8D50 005:929.865    -- Read from C cache (2 bytes @ 0x200001C0)
T8D50 005:929.957   Data:  00 00
T8D50 005:929.970 - 0.114ms returns 2 (0x2)
T8D50 005:929.983 JLINK_ReadMemEx(0x200001C2, 0x2 Bytes, Flags = 0x02000000)
T8D50 005:929.992    -- Read from C cache (2 bytes @ 0x200001C2)
T8D50 005:930.004   Data:  00 00
T8D50 005:930.017 - 0.033ms returns 2 (0x2)
T8D50 005:930.028 JLINK_ReadMemEx(0x200001C4, 0x2 Bytes, Flags = 0x02000000)
T8D50 005:930.037    -- Read from C cache (2 bytes @ 0x200001C4)
T8D50 005:930.049   Data:  00 00
T8D50 005:930.062 - 0.034ms returns 2 (0x2)
T8C38 019:403.062 JLINK_ReadMemEx(0x08002552, 0x2 Bytes, Flags = 0x02000000)
T8C38 019:403.106    -- Read from C cache (2 bytes @ 0x08002552)
T8C38 019:403.126   Data:  FF F7
T8C38 019:403.146 - 0.084ms returns 2 (0x2)
T8C38 019:403.164 JLINK_HasError()
T8C38 019:403.184 JLINK_SetBPEx(Addr = 0x08000800, Type = 0xFFFFFFF2)
T8C38 019:403.200 - 0.016ms returns 0x00000003
T8C38 019:403.214 JLINK_HasError()
T8C38 019:403.230 JLINK_HasError()
T8C38 019:403.248 JLINK_Go()
T8C38 019:404.028   CPU_WriteMem(4 bytes @ 0xE0002000)
T8C38 019:404.956   CPU_ReadMem(4 bytes @ 0xE0001000)
T8C38 019:405.634   CPU_WriteMem(4 bytes @ 0xE0002008)
T8C38 019:405.656   CPU_WriteMem(4 bytes @ 0xE000200C)
T8C38 019:407.624 - 4.374ms 
T8C38 019:508.660 JLINK_HasError()
T8C38 019:508.700 JLINK_IsHalted()
T8C38 019:513.626 - 4.925ms returns TRUE
T8C38 019:513.658 JLINK_HasError()
T8C38 019:513.668 JLINK_Halt()
T8C38 019:513.678 - 0.009ms returns 0x00
T8C38 019:513.694 JLINK_IsHalted()
T8C38 019:513.704 - 0.008ms returns TRUE
T8C38 019:513.716 JLINK_IsHalted()
T8C38 019:513.724 - 0.008ms returns TRUE
T8C38 019:513.746 JLINK_IsHalted()
T8C38 019:513.754 - 0.008ms returns TRUE
T8C38 019:513.768 JLINK_HasError()
T8C38 019:513.828 JLINK_ReadReg(R15 (PC))
T8C38 019:513.840 - 0.011ms returns 0x08000800
T8C38 019:513.852 JLINK_ReadReg(XPSR)
T8C38 019:513.860 - 0.009ms returns 0x01000050
T8C38 019:513.876 JLINK_HasError()
T8C38 019:513.886 JLINK_ClrBPEx(BPHandle = 0x00000003)
T8C38 019:513.896 - 0.010ms returns 0x00
T8C38 019:513.908 JLINK_HasError()
T8C38 019:513.918 JLINK_HasError()
T8C38 019:513.930 JLINK_ReadMemU32(0xE000ED30, 0x1 Items)
T8C38 019:513.948   CPU_ReadMem(4 bytes @ 0xE000ED30)
T8C38 019:514.620   Data:  02 00 00 00
T8C38 019:514.644 - 0.714ms returns 1 (0x1)
T8C38 019:514.660 JLINK_ReadMemU32(0xE0001028, 0x1 Items)
T8C38 019:514.672   CPU_ReadMem(4 bytes @ 0xE0001028)
T8C38 019:515.360   Data:  00 00 00 00
T8C38 019:515.376   Debug reg: DWT_FUNC[0]
T8C38 019:515.388 - 0.729ms returns 1 (0x1)
T8C38 019:515.402 JLINK_ReadMemU32(0xE0001038, 0x1 Items)
T8C38 019:515.412   CPU_ReadMem(4 bytes @ 0xE0001038)
T8C38 019:516.156   Data:  00 02 00 00
T8C38 019:516.180   Debug reg: DWT_FUNC[1]
T8C38 019:516.192 - 0.790ms returns 1 (0x1)
T8C38 019:516.204 JLINK_ReadMemU32(0xE0001048, 0x1 Items)
T8C38 019:516.218   CPU_ReadMem(4 bytes @ 0xE0001048)
T8C38 019:516.894   Data:  00 00 00 00
T8C38 019:516.916   Debug reg: DWT_FUNC[2]
T8C38 019:516.928 - 0.723ms returns 1 (0x1)
T8C38 019:516.942 JLINK_ReadMemU32(0xE0001058, 0x1 Items)
T8C38 019:516.956   CPU_ReadMem(4 bytes @ 0xE0001058)
T8C38 019:517.628   Data:  00 00 00 00
T8C38 019:517.650   Debug reg: DWT_FUNC[3]
T8C38 019:517.662 - 0.720ms returns 1 (0x1)
T8C38 019:517.724 JLINK_HasError()
T8C38 019:517.736 JLINK_ReadReg(R0)
T8C38 019:517.746 - 0.009ms returns 0x000000D1
T8C38 019:517.756 JLINK_ReadReg(R1)
T8C38 019:517.764 - 0.008ms returns 0x20005080
T8C38 019:517.776 JLINK_ReadReg(R2)
T8C38 019:517.784 - 0.008ms returns 0x20000148
T8C38 019:517.794 JLINK_ReadReg(R3)
T8C38 019:517.804 - 0.008ms returns 0x20005080
T8C38 019:517.812 JLINK_ReadReg(R4)
T8C38 019:517.822 - 0.008ms returns 0x00000000
T8C38 019:517.832 JLINK_ReadReg(R5)
T8C38 019:517.842 - 0.008ms returns 0x200000D8
T8C38 019:517.852 JLINK_ReadReg(R6)
T8C38 019:517.860 - 0.008ms returns 0x00000002
T8C38 019:517.870 JLINK_ReadReg(R7)
T8C38 019:517.878 - 0.008ms returns 0x1C000000
T8C38 019:517.890 JLINK_ReadReg(R8)
T8C38 019:517.902 - 0.012ms returns 0x00000000
T8C38 019:517.916 JLINK_ReadReg(R9)
T8C38 019:517.924 - 0.008ms returns 0x00000E08
T8C38 019:517.932 JLINK_ReadReg(R10)
T8C38 019:517.942 - 0.008ms returns 0x00000001
T8C38 019:517.954 JLINK_ReadReg(R11)
T8C38 019:517.962 - 0.008ms returns 0x00000000
T8C38 019:517.972 JLINK_ReadReg(R12)
T8C38 019:517.980 - 0.008ms returns 0xA5A5A5A5
T8C38 019:517.992 JLINK_ReadReg(R13 (SP))
T8C38 019:518.000 - 0.009ms returns 0x20005080
T8C38 019:518.012 JLINK_ReadReg(R14)
T8C38 019:518.020 - 0.008ms returns 0x0800130D
T8C38 019:518.030 JLINK_ReadReg(R15 (PC))
T8C38 019:518.038 - 0.008ms returns 0x08000800
T8C38 019:518.050 JLINK_ReadReg(XPSR)
T8C38 019:518.058 - 0.008ms returns 0x01000050
T8C38 019:518.068 JLINK_ReadReg(MSP)
T8C38 019:518.076 - 0.008ms returns 0x20005080
T8C38 019:518.088 JLINK_ReadReg(PSP)
T8C38 019:518.096 - 0.008ms returns 0x20000A18
T8C38 019:518.108 JLINK_ReadReg(CFBP)
T8C38 019:518.116 - 0.008ms returns 0x00000000
T8C38 019:518.126 JLINK_ReadReg(FPSCR)
T8C38 019:525.404 - 7.275ms returns 0x03000000
T8C38 019:525.426 JLINK_ReadReg(FPS0)
T8C38 019:525.436 - 0.010ms returns 0x00000000
T8C38 019:525.448 JLINK_ReadReg(FPS1)
T8C38 019:525.456 - 0.008ms returns 0x00000000
T8C38 019:525.468 JLINK_ReadReg(FPS2)
T8C38 019:525.476 - 0.008ms returns 0x00000000
T8C38 019:525.486 JLINK_ReadReg(FPS3)
T8C38 019:525.496 - 0.008ms returns 0x00000000
T8C38 019:525.506 JLINK_ReadReg(FPS4)
T8C38 019:525.516 - 0.008ms returns 0x00000000
T8C38 019:525.524 JLINK_ReadReg(FPS5)
T8C38 019:525.532 - 0.008ms returns 0x00000000
T8C38 019:525.544 JLINK_ReadReg(FPS6)
T8C38 019:525.554 - 0.008ms returns 0x00000000
T8C38 019:525.564 JLINK_ReadReg(FPS7)
T8C38 019:525.572 - 0.008ms returns 0x00000000
T8C38 019:525.582 JLINK_ReadReg(FPS8)
T8C38 019:525.590 - 0.008ms returns 0x00000000
T8C38 019:525.602 JLINK_ReadReg(FPS9)
T8C38 019:525.610 - 0.008ms returns 0x00000000
T8C38 019:525.620 JLINK_ReadReg(FPS10)
T8C38 019:525.628 - 0.008ms returns 0x00000000
T8C38 019:525.640 JLINK_ReadReg(FPS11)
T8C38 019:525.648 - 0.008ms returns 0x00000000
T8C38 019:525.660 JLINK_ReadReg(FPS12)
T8C38 019:525.668 - 0.008ms returns 0x00000000
T8C38 019:525.678 JLINK_ReadReg(FPS13)
T8C38 019:525.686 - 0.008ms returns 0x00000000
T8C38 019:525.698 JLINK_ReadReg(FPS14)
T8C38 019:525.706 - 0.008ms returns 0x00000000
T8C38 019:525.716 JLINK_ReadReg(FPS15)
T8C38 019:525.724 - 0.008ms returns 0x00000000
T8C38 019:525.736 JLINK_ReadReg(FPS16)
T8C38 019:525.744 - 0.008ms returns 0x00000000
T8C38 019:525.754 JLINK_ReadReg(FPS17)
T8C38 019:525.764 - 0.008ms returns 0x00000000
T8C38 019:525.772 JLINK_ReadReg(FPS18)
T8C38 019:525.782 - 0.008ms returns 0x00000000
T8C38 019:525.792 JLINK_ReadReg(FPS19)
T8C38 019:525.800 - 0.008ms returns 0x00000000
T8C38 019:525.812 JLINK_ReadReg(FPS20)
T8C38 019:525.820 - 0.008ms returns 0x00000000
T8C38 019:525.830 JLINK_ReadReg(FPS21)
T8C38 019:525.838 - 0.008ms returns 0x00000000
T8C38 019:525.850 JLINK_ReadReg(FPS22)
T8C38 019:525.858 - 0.008ms returns 0x00000000
T8C38 019:525.868 JLINK_ReadReg(FPS23)
T8C38 019:525.876 - 0.008ms returns 0x00000000
T8C38 019:525.888 JLINK_ReadReg(FPS24)
T8C38 019:525.896 - 0.008ms returns 0x00000000
T8C38 019:525.906 JLINK_ReadReg(FPS25)
T8C38 019:525.916 - 0.008ms returns 0x00000000
T8C38 019:525.924 JLINK_ReadReg(FPS26)
T8C38 019:525.932 - 0.008ms returns 0x00000000
T8C38 019:525.944 JLINK_ReadReg(FPS27)
T8C38 019:525.954 - 0.008ms returns 0x00000000
T8C38 019:525.964 JLINK_ReadReg(FPS28)
T8C38 019:525.972 - 0.008ms returns 0x00000000
T8C38 019:525.982 JLINK_ReadReg(FPS29)
T8C38 019:525.990 - 0.008ms returns 0x00000000
T8C38 019:526.002 JLINK_ReadReg(FPS30)
T8C38 019:526.010 - 0.008ms returns 0x00000000
T8C38 019:526.020 JLINK_ReadReg(FPS31)
T8C38 019:526.028 - 0.008ms returns 0x00000000
T8D50 019:526.198 JLINK_ReadMemEx(0x200050AC, 0x4 Bytes, Flags = 0x02000000)
T8D50 019:526.226   CPU_ReadMem(64 bytes @ 0x20005080)
T8D50 019:527.514    -- Updating C cache (64 bytes @ 0x20005080)
T8D50 019:527.542    -- Read from C cache (4 bytes @ 0x200050AC)
T8D50 019:527.556   Data:  63 0E 00 08
T8D50 019:527.568 - 1.370ms returns 4 (0x4)
T8D50 019:528.138 JLINK_ReadMemEx(0x200050A4, 0x4 Bytes, Flags = 0x02000000)
T8D50 019:528.154    -- Read from C cache (4 bytes @ 0x200050A4)
T8D50 019:528.166   Data:  D8 00 00 20
T8D50 019:528.180 - 0.042ms returns 4 (0x4)
T8D50 019:528.192 JLINK_ReadMemEx(0x200050A8, 0x4 Bytes, Flags = 0x02000000)
T8D50 019:528.200    -- Read from C cache (4 bytes @ 0x200050A8)
T8D50 019:528.212   Data:  00 00 00 00
T8D50 019:528.224 - 0.033ms returns 4 (0x4)
T8D50 019:528.238 JLINK_ReadMemEx(0x200050D4, 0x4 Bytes, Flags = 0x02000000)
T8D50 019:528.250   CPU_ReadMem(64 bytes @ 0x200050C0)
T8D50 019:529.532    -- Updating C cache (64 bytes @ 0x200050C0)
T8D50 019:529.564    -- Read from C cache (4 bytes @ 0x200050D4)
T8D50 019:529.584   Data:  4D 06 00 08
T8D50 019:529.604 - 1.365ms returns 4 (0x4)
T8D50 019:529.956 JLINK_ReadMemEx(0x200050B0, 0x4 Bytes, Flags = 0x02000000)
T8D50 019:529.974    -- Read from C cache (4 bytes @ 0x200050B0)
T8D50 019:529.994   Data:  A5 A5 A5 A5
T8D50 019:530.012 - 0.059ms returns 4 (0x4)
T8D50 019:530.032 JLINK_ReadMemEx(0x200050B4, 0x4 Bytes, Flags = 0x02000000)
T8D50 019:530.046    -- Read from C cache (4 bytes @ 0x200050B4)
T8D50 019:530.066   Data:  A5 A5 A5 A5
T8D50 019:530.084 - 0.053ms returns 4 (0x4)
T8D50 019:530.100 JLINK_ReadMemEx(0x200050B8, 0x4 Bytes, Flags = 0x02000000)
T8D50 019:530.116    -- Read from C cache (4 bytes @ 0x200050B8)
T8D50 019:530.132   Data:  A5 A5 A5 A5
T8D50 019:530.152 - 0.051ms returns 4 (0x4)
T8D50 019:530.170 JLINK_ReadMemEx(0x200050BC, 0x4 Bytes, Flags = 0x02000000)
T8D50 019:530.182    -- Read from C cache (4 bytes @ 0x200050BC)
T8D50 019:530.202   Data:  A5 A5 A5 A5
T8D50 019:530.220 - 0.051ms returns 4 (0x4)
T8D50 019:530.236 JLINK_ReadMemEx(0x200050C0, 0x4 Bytes, Flags = 0x02000000)
T8D50 019:530.250    -- Read from C cache (4 bytes @ 0x200050C0)
T8D50 019:530.262   Data:  A5 A5 A5 A5
T8D50 019:530.276 - 0.038ms returns 4 (0x4)
T8D50 019:530.286 JLINK_ReadMemEx(0x200050C4, 0x4 Bytes, Flags = 0x02000000)
T8D50 019:530.296    -- Read from C cache (4 bytes @ 0x200050C4)
T8D50 019:530.316   Data:  A5 A5 A5 A5
T8D50 019:530.330 - 0.042ms returns 4 (0x4)
T8D50 019:530.340 JLINK_ReadMemEx(0x200050C8, 0x4 Bytes, Flags = 0x02000000)
T8D50 019:530.348    -- Read from C cache (4 bytes @ 0x200050C8)
T8D50 019:530.362   Data:  A5 A5 A5 A5
T8D50 019:530.374 - 0.034ms returns 4 (0x4)
T8D50 019:530.386 JLINK_ReadMemEx(0x200050CC, 0x4 Bytes, Flags = 0x02000000)
T8D50 019:530.394    -- Read from C cache (4 bytes @ 0x200050CC)
T8D50 019:530.406   Data:  A5 A5 A5 A5
T8D50 019:530.420 - 0.033ms returns 4 (0x4)
T8D50 019:530.432 JLINK_ReadMemEx(0x200050DC, 0x4 Bytes, Flags = 0x02000000)
T8D50 019:530.440    -- Read from C cache (4 bytes @ 0x200050DC)
T8D50 019:530.452   Data:  FD FF FF FF
T8D50 019:530.466 - 0.034ms returns 4 (0x4)
T8D50 019:530.476 JLINK_ReadMemEx(0x20000A30, 0x4 Bytes, Flags = 0x02000000)
T8D50 019:530.488   CPU_ReadMem(64 bytes @ 0x20000A00)
T8D50 019:531.708    -- Updating C cache (64 bytes @ 0x20000A00)
T8D50 019:531.724    -- Read from C cache (4 bytes @ 0x20000A30)
T8D50 019:531.736   Data:  A6 2A 00 08
T8D50 019:531.748 - 1.272ms returns 4 (0x4)
T8D50 019:531.768 JLINK_ReadMemEx(0x20000A34, 0x4 Bytes, Flags = 0x02000000)
T8D50 019:531.778    -- Read from C cache (4 bytes @ 0x20000A34)
T8D50 019:531.790   Data:  00 00 00 61
T8D50 019:531.804 - 0.035ms returns 4 (0x4)
T8D50 019:531.814 JLINK_ReadMemEx(0x20000A2C, 0x4 Bytes, Flags = 0x02000000)
T8D50 019:531.824    -- Read from C cache (4 bytes @ 0x20000A2C)
T8D50 019:531.836   Data:  A7 2A 00 08
T8D50 019:531.850 - 0.034ms returns 4 (0x4)
T8D50 019:531.860 JLINK_ReadMemEx(0xE000ED28, 0x4 Bytes, Flags = 0x02000000)
T8D50 019:531.870   CPU_ReadMem(4 bytes @ 0xE000ED28)
T8D50 019:532.530   Data:  00 00 00 00
T8D50 019:532.560 - 0.699ms returns 4 (0x4)
T8D50 019:535.462 JLINK_ReadMemEx(0x20005080, 0x20 Bytes, Flags = 0x02000000)
T8D50 019:535.484    -- Read from C cache (32 bytes @ 0x20005080)
T8D50 019:535.500   Data:  00 04 20 00 01 A8 00 00 D1 00 00 00 00 00 00 00 ...
T8D50 019:535.512 - 0.050ms returns 32 (0x20)
T8D50 019:539.244 JLINK_HasError()
T8D50 019:539.268 JLINK_ReadMemU32(0xE0001004, 0x1 Items)
T8D50 019:539.290   CPU_ReadMem(4 bytes @ 0xE0001004)
T8D50 019:540.010   Data:  0D D6 00 00
T8D50 019:540.032   Debug reg: DWT_CYCCNT
T8D50 019:540.046 - 0.777ms returns 1 (0x1)
T8D50 019:540.230 JLINK_ReadMemEx(0x200001BC, 0x2 Bytes, Flags = 0x02000000)
T8D50 019:540.244   CPU_ReadMem(64 bytes @ 0x20000180)
T8D50 019:541.508    -- Updating C cache (64 bytes @ 0x20000180)
T8D50 019:541.524    -- Read from C cache (2 bytes @ 0x200001BC)
T8D50 019:541.538   Data:  00 00
T8D50 019:541.550 - 1.319ms returns 2 (0x2)
T8D50 019:541.564 JLINK_ReadMemEx(0x200001BE, 0x2 Bytes, Flags = 0x02000000)
T8D50 019:541.576    -- Read from C cache (2 bytes @ 0x200001BE)
T8D50 019:541.588   Data:  00 00
T8D50 019:541.600 - 0.034ms returns 2 (0x2)
T8D50 019:541.612 JLINK_ReadMemEx(0x200001C0, 0x2 Bytes, Flags = 0x02000000)
T8D50 019:541.622   CPU_ReadMem(64 bytes @ 0x200001C0)
T8D50 019:542.806    -- Updating C cache (64 bytes @ 0x200001C0)
T8D50 019:542.820    -- Read from C cache (2 bytes @ 0x200001C0)
T8D50 019:542.834   Data:  00 00
T8D50 019:542.846 - 1.234ms returns 2 (0x2)
T8D50 019:542.860 JLINK_ReadMemEx(0x200001C2, 0x2 Bytes, Flags = 0x02000000)
T8D50 019:542.876    -- Read from C cache (2 bytes @ 0x200001C2)
T8D50 019:542.888   Data:  00 00
T8D50 019:542.900 - 0.039ms returns 2 (0x2)
T8D50 019:542.912 JLINK_ReadMemEx(0x200001C4, 0x2 Bytes, Flags = 0x02000000)
T8D50 019:542.920    -- Read from C cache (2 bytes @ 0x200001C4)
T8D50 019:542.932   Data:  00 00
T8D50 019:542.946 - 0.033ms returns 2 (0x2)
T8D50 019:542.962 JLINK_ReadMemEx(0x200001C6, 0x2 Bytes, Flags = 0x02000000)
T8D50 019:542.970    -- Read from C cache (2 bytes @ 0x200001C6)
T8D50 019:542.982   Data:  03 03
T8D50 019:542.994 - 0.033ms returns 2 (0x2)
T8D50 019:553.518 JLINK_ReadMemEx(0x08000724, 0x3C Bytes, Flags = 0x02000000)
T8D50 019:553.556   CPU_ReadMem(128 bytes @ 0x08000700)
T8D50 019:555.452    -- Updating C cache (128 bytes @ 0x08000700)
T8D50 019:555.484    -- Read from C cache (60 bytes @ 0x08000724)
T8D50 019:555.508   Data:  70 47 01 46 D1 29 04 D3 D4 29 02 D8 A1 F1 D1 00 ...
T8D50 019:555.526 - 2.008ms returns 60 (0x3C)
T8D50 019:555.556 JLINK_ReadMemEx(0x08000760, 0x3C Bytes, Flags = 0x02000000)
T8D50 019:555.574   CPU_ReadMem(64 bytes @ 0x08000780)
T8D50 019:556.896    -- Updating C cache (64 bytes @ 0x08000780)
T8D50 019:556.914    -- Read from C cache (60 bytes @ 0x08000760)
T8D50 019:556.928   Data:  20 49 08 70 38 46 01 F0 F1 FE 5D B3 01 A9 04 A8 ...
T8D50 019:556.940 - 1.384ms returns 60 (0x3C)
T8D50 019:556.958 JLINK_ReadMemEx(0x0800079C, 0x3C Bytes, Flags = 0x02000000)
T8D50 019:556.970   CPU_ReadMem(64 bytes @ 0x080007C0)
T8D50 019:558.180    -- Updating C cache (64 bytes @ 0x080007C0)
T8D50 019:558.196    -- Read from C cache (60 bytes @ 0x0800079C)
T8D50 019:558.208   Data:  17 49 08 70 38 46 01 F0 D3 FE 0D E0 01 F0 CD FE ...
T8D50 019:558.220 - 1.261ms returns 60 (0x3C)
T8D50 019:558.236 JLINK_ReadMemEx(0x080007D8, 0x28 Bytes, Flags = 0x02000000)
T8D50 019:558.246    -- Read from C cache (40 bytes @ 0x080007D8)
T8D50 019:558.260   Data:  01 D3 00 F0 0D F9 09 B0 F0 BD 00 00 15 00 00 20 ...
T8D50 019:558.272 - 0.035ms returns 40 (0x28)
T8D50 019:558.284 JLINK_ReadMemEx(0x08000800, 0x14 Bytes, Flags = 0x02000000)
T8D50 019:558.298   CPU_ReadMem(64 bytes @ 0x08000800)
T8D50 019:559.558    -- Updating C cache (64 bytes @ 0x08000800)
T8D50 019:559.572    -- Read from C cache (20 bytes @ 0x08000800)
T8D50 019:559.584   Data:  70 B5 05 46 0C 46 D1 2D 08 D1 26 48 21 68 01 60 ...
T8D50 019:559.596 - 1.313ms returns 20 (0x14)
T8C38 028:977.084 JLINK_ReadMemEx(0x08000800, 0x2 Bytes, Flags = 0x02000000)
T8C38 028:977.136    -- Read from C cache (2 bytes @ 0x08000800)
T8C38 028:977.152   Data:  70 B5
T8C38 028:977.178 - 0.094ms returns 2 (0x2)
T8C38 028:977.196 JLINK_HasError()
T8C38 028:977.212 JLINK_Step()
T8C38 028:977.926    -- Read from C cache (2 bytes @ 0x08000800)
T8C38 028:977.956   CPU_ReadMem(4 bytes @ 0xE000ED18)
T8C38 028:978.602   CPU_WriteMem(4 bytes @ 0xE000ED18)
T8C38 028:979.254   CPU_ReadMem(4 bytes @ 0xE000ED18)
T8C38 028:979.988   CPU_WriteMem(4 bytes @ 0xE000ED18)
T8C38 028:980.646   CPU_WriteMem(16 bytes @ 0x20005070)
T8C38 028:981.530   -- Simulated
T8C38 028:981.556 - 4.343ms returns 0
T8C38 028:981.578 JLINK_HasError()
T8C38 028:981.590 JLINK_ReadReg(R15 (PC))
T8C38 028:981.600 - 0.008ms returns 0x08000802
T8C38 028:981.610 JLINK_ReadReg(XPSR)
T8C38 028:981.616 - 0.007ms returns 0x01000050
T8C38 028:981.632 JLINK_HasError()
T8C38 028:981.638 JLINK_SetBPEx(Addr = 0x08000800, Type = 0xFFFFFFF2)
T8C38 028:981.648 - 0.008ms returns 0x00000004
T8C38 028:981.658 JLINK_HasError()
T8C38 028:981.664 JLINK_HasError()
T8C38 028:981.674 JLINK_Go()
T8C38 028:981.684   CPU_WriteMem(4 bytes @ 0xE0002000)
T8C38 028:982.380   CPU_ReadMem(4 bytes @ 0xE0001000)
T8C38 028:982.996   CPU_WriteMem(4 bytes @ 0xE0001004)
T8C38 028:985.360 - 3.684ms 
T8C38 029:085.520 JLINK_HasError()
T8C38 029:085.568 JLINK_IsHalted()
T8C38 029:090.460 - 4.891ms returns TRUE
T8C38 029:090.496 JLINK_HasError()
T8C38 029:090.516 JLINK_Halt()
T8C38 029:090.528 - 0.012ms returns 0x00
T8C38 029:090.544 JLINK_IsHalted()
T8C38 029:090.556 - 0.011ms returns TRUE
T8C38 029:090.576 JLINK_IsHalted()
T8C38 029:090.588 - 0.011ms returns TRUE
T8C38 029:090.608 JLINK_IsHalted()
T8C38 029:090.618 - 0.011ms returns TRUE
T8C38 029:090.640 JLINK_HasError()
T8C38 029:090.660 JLINK_ReadReg(R15 (PC))
T8C38 029:090.672 - 0.014ms returns 0x08000800
